"Freq [GHz]","dB(S(FloquetPort1:1,FloquetPort1:1)) []","dB(S(FloquetPort1:1,FloquetPort2:1)) []"
1,-4.00878251394482,-2.19900907141986
1.01,-4.07428525993846,-2.15635694606709
1.02,-4.14402262787624,-2.11209665954977
1.03,-4.21821894493019,-2.06626018096562
1.04,-4.29711764717329,-2.01888287273322
1.05,-4.38098300805209,-1.97000374815447
1.06,-4.470102072165,-1.91966574476114
1.07,-4.56478682368174,-1.86791601348606
1.08,-4.66537662401819,-1.81480622350884
1.09,-4.77224095981101,-1.76039288239225
1.1,-4.88578255011578,-1.70473767084279
1.11,-5.006440871464,-1.64790779108983
1.12,-5.13469617145871,-1.58997632747745
1.13,-5.27107405662021,-1.53102261739314
1.14,-5.41615075907813,-1.47113263011362
1.15,-5.57055921059454,-1.41039935052266
1.16,-5.73499608283921,-1.34892316394617
1.17,-5.91022999190805,-1.28681223755179
1.18,-6.097111115628,-1.22418289287447
1.19,-6.29658253814957,-1.16115996305789
1.2,-6.50969372315195,-1.09787712735239
1.21,-6.73761663236451,-1.03447721429448
1.22,-6.98166516099454,-0.971112463831143
1.23,-7.24331877185144,-0.907944737470883
1.24,-7.52425149861381,-0.845145664378056
1.25,-7.82636789018407,-0.782896710225035
1.26,-8.15184803438713,-0.721389154634849
1.27,-8.50320461035643,-0.660823962254482
1.28,-8.88335610031916,-0.601411531976015
1.29,-9.29572204446766,-0.543371308660148
1.3,-9.74434887798175,-0.486931242011542
1.31,-10.2340790052787,-0.432327078110777
1.32,-10.7707823137085,-0.379801470623461
1.33,-11.3616800518061,-0.329602900975453
1.34,-12.0158091533078,-0.281984399878725
1.35,-12.7447070289204,-0.237202066562554
1.36,-13.5634555942697,-0.195513386917478
1.37,-14.4923371620816,-0.157175357454175
1.38,-15.559589792446,-0.122442428414687
1.39,-16.8062732265281,-0.0915642863809904
1.4,-18.2955408655543,-0.0647835040667872
1.41,-20.1321841988824,-0.0423330923438523
1.42,-22.5101016561578,-0.0244339965768752
1.43,-25.8555454613491,-0.0112925856080353
1.44,-31.4682924460095,-0.00309818681447461
1.45,-53.2089122878148,-2.07241386533461E-05
1.46,-32.9378863854172,-0.00220851749161481
1.47,-26.4765353951688,-0.00978630116424639
1.48,-22.7997287318619,-0.0228535156820969
1.49,-20.2198724615111,-0.0414829218803354
1.5,-18.2337138063429,-0.0657195779949235
1.51,-16.6218672190642,-0.0955802105640587
1.52,-15.2687376953225,-0.131052998361862
1.53,-14.1058583846136,-0.172097776015276
1.54,-13.0892829533468,-0.218646651034878
1.55,-12.1890882398088,-0.270605015399337
1.56,-11.3839512478851,-0.32785292122225
1.57,-10.6581153698117,-0.390246779974166
1.58,-9.9995848777582,-0.457621336686213
1.59,-9.39899586213899,-0.529791864830834
1.6,-8.84888098906669,-0.606556524301281
1.61,-8.34317427884519,-0.687698824075854
1.62,-7.87686789708378,-0.772990132588577
1.63,-7.44576841318751,-0.862192182250888
1.64,-7.04631999301978,-0.955059519608517
1.65,-6.67547373902503,-1.05134185885594
1.66,-6.33058952633539,-1.15078630343669
1.67,-6.00936115014904,-1.25313940781842
1.68,-5.7097584716278,-1.35814905887821
1.69,-5.42998214066957,-1.46556616335413
1.7,-5.16842774606211,-1.57514613427476
1.71,-4.92365711591457,-1.68665017499628
1.72,-4.69437509996172,-1.79984636435551
1.73,-4.47941059671926,-1.91451055044353
1.74,-4.27770089850267,-2.03042706362572
1.75,-4.08827865296161,-2.1473892617254
1.76,-3.91026090585841,-2.26519992182552
1.77,-3.74283981328884,-2.38367149401567
1.78,-3.58527470416746,-2.50262623272172
1.79,-3.43688524384069,-2.62189622110455
1.8,-3.29704550304103,-2.74132330350026
1.81,-3.16517877729581,-2.86075894008817
1.82,-3.04075303344899,-2.98006399699534
1.83,-2.92327688441744,-3.09910848394601
1.84,-2.812296012376,-3.21777125040027
1.85,-2.70738997550995,-3.33593964994365
1.86,-2.60816934524275,-3.45350918152627
1.87,-2.5142731301624,-3.5703831150319
1.88,-2.42536645028168,-3.68647210760542
1.89,-2.34113843119683,-3.80169381619215
1.9,-2.2613002924792,-3.91597251085337
1.91,-2.18558360849581,-4.02923869262078
1.92,-2.11373872299891,-4.14142871893949
1.93,-2.04553330140381,-4.25248443912048
1.94,-1.98075100680266,-4.36235284167557
1.95,-1.91919028753292,-4.47098571493561
1.96,-1.8606632656019,-4.57833932194821
1.97,-1.80499471652087,-4.6843740903099
1.98,-1.75202113216597,-4.78905431730164
1.99,-1.70158985919478,-4.89234789046023
2,-1.65355830633265,-4.99422602352455
2.01,-1.6077932145255,-5.0946630075407
2.02,-1.56416998455099,-5.19363597678692
2.03,-1.52257205720388,-5.2911246890835
2.04,-1.4828903416332,-5.38711131998287
2.05,-1.44502268781976,-5.48158027028192
2.06,-1.40887339954752,-5.57451798626507
2.07,-1.37435278455024,-5.66591279206443
2.08,-1.34137673880829,-5.75575473351424
2.09,-1.30986636223515,-5.84403543287577
2.1,-1.27974760323206,-5.93074795381506
2.11,-1.25095092980526,-6.0158866760289
2.12,-1.22341102513662,-6.09944717893022
2.13,-1.19706650567577,-6.18142613382475
2.14,-1.17185965998437,-6.26182120403274
2.15,-1.14773620670996,-6.34063095243366
2.16,-1.12464507020148,-6.4178547559369
2.17,-1.102538172401,-6.49349272640669
2.18,-1.0813702397578,-6.56754563759534
2.19,-1.06109862401384,-6.6400148576641
2.2,-1.04168313580216,-6.71090228689586
2.21,-1.02308589008624,-6.78021030022811
2.22,-1.00527116254565,-6.84794169425801
2.23,-0.988205256085736,-6.91409963839379
2.24,-0.97185637671404,-6.97868762984839
2.25,-0.956194518086774,-7.04170945219146
2.26,-0.94119135408342,-7.10316913719554
2.27,-0.926820138818297,-7.16307092973007
2.28,-0.913055613544132,-7.22141925547515
2.29,-0.899873919945268,-7.27821869124213
2.3,-0.887252519357338,-7.3334739377041
2.31,-0.875170117485839,-7.38718979435365
2.32,-0.863606594229307,-7.43937113651837
2.33,-0.852542938242835,-7.49002289427735
2.34,-0.841961185905839,-7.53915003313356
2.35,-0.831844364383371,-7.58675753630785
2.36,-0.822176438494097,-7.63285038853052
2.37,-0.812942261119771,-7.67743356121583
2.38,-0.804127526911121,-7.72051199891359
2.39,-0.795718729063578,-7.7620906069403
2.4,-0.787703118953502,-7.80217424009948
2.41,-0.780068668441213,-7.84076769240843
2.42,-0.772804034661971,-7.87787568775476
2.43,-0.765898527139452,-7.91350287141226
2.44,-0.759342077069014,-7.94765380235133
2.45,-0.753125208629571,-7.98033294628429
2.46,-0.74723901219386,-8.01154466939082
2.47,-0.741675119316994,-8.04129323267327
2.48,-0.736425679392598,-8.0695827868956
2.49,-0.731483337874625,-8.09641736806362
2.5,-0.726841215971246,-8.12180089340793
2.51,-0.722492891724856,-8.14573715783382
2.52,-0.71843238239956,-8.16822983080598
2.53,-0.714654128104255,-8.18928245363816
2.54,-0.711152976585915,-8.20889843716107
2.55,-0.707924169133668,-8.22708105974359
2.56,-0.704963327540059,-8.2438334656452
2.57,-0.702266442071314,-8.25915866367919
2.58,-0.699829860403554,-8.27305952616814
2.59,-0.697650277486814,-8.28553878817528
2.6,-0.695724726303435,-8.29659904699623
2.61,-0.694050569491825,-8.30624276189786
2.62,-0.692625491810834,-8.31447225409187
2.63,-0.691447493424094,-8.32128970693204
2.64,-0.690514883987553,-8.32669716632524
2.65,-0.689826277527151,-8.33069654134748
2.66,-0.689380588097218,-8.33328960505681
2.67,-0.689177026213529,-8.33447799549623
2.68,-0.689215096058273,-8.33426321688004
2.69,-0.689494593457352,-8.33264664095816
2.7,-0.690015604633318,-8.32962950855326
2.71,-0.690778505740268,-8.32521293126627
2.72,-0.691783963189526,-8.31939789334627
2.73,-0.693032934777682,-8.31218525372119
2.74,-0.694526671630776,-8.30357574818607
2.75,-0.696266720980829,-8.29356999174613
2.76,-0.698254929792816,-8.28216848111217
2.77,-0.700493449262155,-8.269371597346
2.78,-0.702984740204446,-8.25517960865383
2.79,-0.705731579360635,-8.23959267332626
2.8,-0.708737066642079,-8.22261084282318
2.81,-0.712004633340855,-8.20423406500247
2.82,-0.715538051331601,-8.18446218749189
2.83,-0.719341443291323,-8.16329496120355
2.84,-0.72341929396399,-8.14073204399115
2.85,-0.72777646249634,-8.1167730044502
2.86,-0.73241819587075,-8.09141732586296
2.87,-0.737350143460048,-8.06466441028957
2.88,-0.742578372727567,-8.03651358280852
2.89,-0.748109386093983,-8.00696409591064
2.9,-0.753950138989693,-7.97601513405201
2.91,-0.760108059108729,-7.94366581837306
2.92,-0.766591066876282,-7.9099152115932
2.93,-0.773407597137669,-7.87476232309269
2.94,-0.780566622071338,-7.83820611419652
2.95,-0.788077675322713,-7.80024550367851
2.96,-0.795950877348875,-7.76087937350775
2.97,-0.804196961956276,-7.72010657486487
2.98,-0.812827304005204,-7.67792593446059
2.99,-0.821853948244736,-7.63433626119627
3,-0.831289639231242,-7.58933635321326
3.01,-0.841146087059663,-7.54291203592353
3.02,-0.851434435596352,-7.49509068237245
3.03,-0.862169749449184,-7.44586729498201
3.04,-0.873367793026842,-7.39523785494463
3.05,-0.885045077367209,-7.34319924412254
3.06,-0.897218908995054,-7.28974917418973
3.07,-0.90990744100174,-7.23488612290212
3.08,-0.923129726552294,-7.1786092774176
3.09,-0.936905775038313,-7.1209184846147
3.1,-0.951256611108173,-7.06181420838122
3.11,-0.966204336819222,-7.00129749386006
3.12,-0.981772197170129,-6.93936993865153
3.13,-0.997984649285014,-6.87603367097988
3.14,-1.01486743553499,-6.81129133483686
3.15,-1.03244766089667,-6.74514608211787
3.16,-1.05075387486151,-6.67760157176712
3.17,-1.06981615822484,-6.60866197594729
3.18,-1.08966621509792,-6.53833199324691
3.19,-1.1103374705021,-6.46661686893556
3.2,-1.1318651739199,-6.39352242227274
3.21,-1.15428650919378,-6.31905508087123
3.22,-1.17764071118026,-6.24322192211064
3.23,-1.20196918958417,-6.1660307215898
3.24,-1.22731566041546,-6.0874900086002
3.25,-1.25372628552935,-6.00760912859453
3.26,-1.28124982072963,-5.92639831261552
3.27,-1.3099377729344,-5.84386875363984
3.28,-1.33984456692434,-5.76003268978101
3.29,-1.37102772221445,-5.67490349428069
3.3,-1.40354804061307,-5.58849577220316
3.31,-1.43746980505498,-5.50082546372877
3.32,-1.47286099032052,-5.41190995392124
3.33,-1.50979348627894,-5.32176818881819
3.34,-1.54834333432214,-5.23042079766525
3.35,-1.58859097768599,-5.13789022107923
3.36,-1.63062152638892,-5.04420084488604
3.37,-1.67452503755466,-4.94937913933188
3.38,-1.72039681192616,-4.85345380331241
3.39,-1.76833770742406,-4.75645591320177
3.4,-1.81845447065481,-4.65841907579168
3.41,-1.87086008733428,-4.55937958476904
3.42,-1.92567415266247,-4.45937658006694
3.43,-1.98302326276784,-4.35845220931948
3.44,-2.04304142843774,-4.25665179053199
3.45,-2.10587051246894,-4.15402397494763
3.46,-2.17166069211368,-4.05062090894488
3.47,-2.24057094826777,-3.94649839364064
3.48,-2.31276958325504,-3.84171604069929
3.49,-2.3884347693164,-3.73633742265912
3.5,-2.46775513022064,-3.63043021588591
3.51,-2.55093035879294,-3.52406633405007
3.52,-2.63817187361973,-3.41732204980028
3.53,-2.72970351875544,-3.31027810207767
3.54,-2.82576231094952,-3.2030197862815
3.55,-2.92659923976061,-3.09563702426823
3.56,-3.03248012696096,-2.98822441094455
3.57,-3.14368655290105,-2.8808812340097
3.58,-3.2605168590513,-2.77371146322258
3.59,-3.38328723782502,-2.66682370542421
3.6,-3.51233292309124,-2.56033112144736
3.61,-3.64800949759611,-2.45435130100605
3.62,-3.79069433694243,-2.34900609169108
3.63,-3.94078821396587,-2.24442137831788
3.64,-4.09871709246743,-2.14072680909485
3.65,-4.26493414553157,-2.03805546541743
3.66,-4.43992204135115,-1.93654347255814
3.67,-4.62419554894255,-1.83632954912773
3.68,-4.8183045278124,-1.73755449393356
3.69,-5.02283738010772,-1.64036060976488
3.7,-5.23842506179898,-1.54489106468677
3.71,-5.46574577199819,-1.45128919262135
3.72,-5.70553046792577,-1.359697736319
3.73,-5.9585693890764,-1.27025803725471
3.74,-6.22571982020135,-1.18310917849253
3.75,-6.50791538211108,-1.09838708810842
3.76,-6.80617721656699,-1.0162236123001
3.77,-7.12162753305516,-0.936745568790149
3.78,-7.45550612006423,-0.860073792488094
3.79,-7.80919060459698,-0.786322186555034
3.8,-8.18422148990361,-0.715596792953083
3.81,-8.5823333406749,-0.64799489720138
3.82,-9.00549395890893,-0.583604182351019
3.83,-9.45595406600167,-0.52250194709215
3.84,-9.93631097617579,-0.464754402391062
3.85,-10.4495911699564,-0.410416060112674
3.86,-10.9993588084269,-0.359529225722516
3.87,-11.5898604926984,-0.312123605408887
3.88,-12.226221692574,-0.268216035867054
3.89,-12.9147185223203,-0.227810342605848
3.9,-13.6631622684235,-0.19089733005171
3.91,-14.4814577279236,-0.157454904024542
3.92,-15.3824388800575,-0.127448324438863
3.93,-16.3831653890758,-0.100830583438991
3.94,-17.5070228690157,-0.0775429016997574
3.95,-18.7873102727935,-0.057515333398106
3.96,-20.2737890841166,-0.0406674684547924
3.97,-22.0457183879837,-0.0269092191130692
3.98,-24.2410267924209,-0.0161416767971781
3.99,-27.1337071539217,-0.00825802449303628
4,-31.4045002712878,-0.00314448961388456
4.01,-39.7622810660705,-0.000526196884689081
4.02,-43.4626415851818,-0.000315484245913786
4.03,-32.8815994590414,-0.0023842768209555
4.04,-28.2828632366085,-0.00659894320449298
4.05,-25.3443278242761,-0.0128213485533021
4.06,-23.1983069262217,-0.0209098884590528
4.07,-21.5189532230612,-0.0307204920145628
4.08,-20.1480529863482,-0.0421075832623661
4.09,-18.9966530433371,-0.0549249904100571
4.1,-18.0096903425694,-0.0690267910517744
4.11,-17.1506697307637,-0.0842680772075125
4.12,-16.394133958685,-0.100505611057827
4.13,-15.7216053822725,-0.117598308248754
4.14,-15.1192343171284,-0.135407447733294
4.15,-14.5763371231208,-0.15379824411849
4.16,-14.0842993734143,-0.172971792006009
4.17,-13.636417692508,-0.192184101290896
4.18,-13.2321454515177,-0.211396211003229
4.19,-12.8588313944983,-0.230860135992864
4.2,-12.5169290259557,-0.250332301117323
4.21,-12.2031687716995,-0.269693115788142
4.22,-11.9149020586688,-0.288839343629213
4.23,-11.6498984204038,-0.307675575697199
4.24,-11.4062518883946,-0.32611253858772
4.25,-11.1823192665389,-0.34406654806609
4.26,-10.9766741230306,-0.361459235724612
4.27,-10.788071036111,-0.378217351084276
4.28,-10.6154173448345,-0.39427258501211
4.29,-10.4577506824784,-0.409561399548703
4.3,-10.3142210873021,-0.424024861864895
4.31,-10.184076794529,-0.437608484510992
4.32,-10.066653016401,-0.450262075656565
4.33,-9.96136315747564,-0.46193960338757
4.34,-9.86769201238215,-0.472599077978784
4.35,-9.78519056606682,-0.482202455662552
4.36,-9.71347207036775,-0.490715566891896
4.37,-9.65220911101136,-0.498108071509773
4.38,-9.60113140956848,-0.504353442619757
4.39,-9.56002412821807,-0.509428980327336
4.4,-9.52872646334726,-0.513315855897055
4.41,-9.50713032868005,-0.515999186255835
4.42,-9.49517894119665,-0.517468138171943
4.43,-9.49286513494344,-0.517716060853353
4.44,-9.50022924032924,-0.516740645140029
4.45,-9.51735638110662,-0.514544106911319
4.46,-9.54437305943061,-0.511133391792403
4.47,-9.58144292261725,-0.50652039772142
4.48,-9.62876163475845,-0.500722211432796
4.49,-9.68655081309194,-0.493761354422749
4.5,-9.75505103329225,-0.485666033492732
4.51,-9.83212788549642,-0.47670043983576
4.52,-9.92015404026422,-0.466631016911202
4.53,-10.0196013368058,-0.455497627493056
4.54,-10.1309901820093,-0.443343862412807
4.55,-10.2548980066799,-0.430217155790179
4.56,-10.3919689233729,-0.416168907322213
4.57,-10.5429248369787,-0.401254609925698
4.58,-10.7085783326975,-0.385533980728503
4.59,-10.8898477624162,-0.369071093097905
4.6,-11.0877750781475,-0.351934507081333
4.61,-11.303547132127,-0.334197395317585
4.62,-11.5385213948373,-0.315937661156569
4.63,-11.7942573603512,-0.297238045404955
4.64,-12.0725553513956,-0.278186217795851
4.65,-12.3755050629119,-0.258874848962177
4.66,-12.7055470832757,-0.23940165837339
4.67,-13.0655519501984,-0.219869433361573
4.68,-13.4589232661409,-0.200386013987745
4.69,-13.8897344024485,-0.181064238018449
4.7,-14.3629130248282,-0.16202183955421
4.71,-14.8844952497818,-0.143381293557318
4.72,-15.4619838597473,-0.125269595927803
4.73,-16.1048668621571,-0.10781796306641
4.74,-16.8253924141527,-0.0911614213325059
4.75,-17.6397730503999,-0.0754382226817378
4.76,-18.5701553113181,-0.0607889417423924
4.77,-19.6481088739183,-0.0473554986059691
4.78,-20.923012734144,-0.0352610074619154
4.79,-22.4998065599345,-0.0244991896955911
4.8,-24.4430800093155,-0.015645329125054
4.81,-25.0778030188523,-0.0137451017563394
4.82,-29.8512039473083,-0.00449762897768372
4.83,-35.1250621449897,-0.00133649056924076
4.84,-38.6583901033931,-0.000593935692682606
4.85,-32.7759925028787,-0.00229495453888443
4.86,-28.2174949523157,-0.00655444299751492
4.87,-25.0832139695319,-0.0134967958452181
4.88,-22.7269161299731,-0.0232443110949505
4.89,-20.8436552904308,-0.0359135688686343
4.9,-19.276297103583,-0.0516136138286667
4.91,-17.934701994531,-0.0704447212206816
4.92,-16.7627120915036,-0.0924974224973171
4.93,-15.7230824575059,-0.117851690822892
4.94,-14.7898867298611,-0.146576255235027
4.95,-13.9443718462389,-0.178728035651585
4.96,-13.1725456792927,-0.214351698981375
4.97,-12.4636979873403,-0.253479338708099
4.98,-11.8094536331278,-0.296130279853489
4.99,-11.2031441797935,-0.342311009568834
5,-10.6393777407509,-0.392015231398182
