"Freq [GHz]","mag(S(FloquetPort1:1,FloquetPort1:1)) [] - $varyingpermittivity='2'","mag(S(FloquetPort1:1,FloquetPort1:1)) [] - $varyingpermittivity='3'","mag(S(FloquetPort1:1,FloquetPort1:1)) [] - $varyingpermittivity='4'","mag(S(FloquetPort1:1,FloquetPort1:1)) [] - $varyingpermittivity='5'","mag(S(FloquetPort1:1,FloquetPort1:1)) [] - $varyingpermittivity='6'","mag(S(FloquetPort1:1,FloquetPort1:1)) [] - $varyingpermittivity='7'","mag(S(FloquetPort1:1,FloquetPort1:1)) [] - $varyingpermittivity='8'","mag(S(FloquetPort1:1,FloquetPort1:1)) [] - $varyingpermittivity='9'","mag(S(FloquetPort1:1,FloquetPort1:1)) [] - $varyingpermittivity='10'","mag(S(FloquetPort1:1,FloquetPort2:1)) [] - $varyingpermittivity='2'","mag(S(FloquetPort1:1,FloquetPort2:1)) [] - $varyingpermittivity='3'","mag(S(FloquetPort1:1,FloquetPort2:1)) [] - $varyingpermittivity='4'","mag(S(FloquetPort1:1,FloquetPort2:1)) [] - $varyingpermittivity='5'","mag(S(FloquetPort1:1,FloquetPort2:1)) [] - $varyingpermittivity='6'","mag(S(FloquetPort1:1,FloquetPort2:1)) [] - $varyingpermittivity='7'","mag(S(FloquetPort1:1,FloquetPort2:1)) [] - $varyingpermittivity='8'","mag(S(FloquetPort1:1,FloquetPort2:1)) [] - $varyingpermittivity='9'","mag(S(FloquetPort1:1,FloquetPort2:1)) [] - $varyingpermittivity='10'"
1,0.171566577878635,0.267949630322824,0.333340313659016,0.381981187510069,0.420212762415036,0.451420567651801,0.477587853480628,0.499999630404675,0.519495404030883,0.985172527706019,0.963432922216076,0.942806573635121,0.924170099271553,0.907425608137369,0.892311308400499,0.878583998378407,0.8660256171698,0.854473244279993
1.01,0.171566523124072,0.267950302482848,0.333341221017627,0.381981867316192,0.420212338069348,0.451420016074736,0.477587154500145,0.499999637449548,0.519496352804686,0.985163666398806,0.96343280344385,0.942806235692873,0.924169820721758,0.907423471171818,0.892310356856008,0.878584382033643,0.866025618361858,0.854472707995672
1.02,0.171566508118457,0.26795102885058,0.333342169689697,0.381982474791464,0.420211821194637,0.451419429376599,0.477586540342204,0.499999740968715,0.519497435186828,0.985156302750045,0.963432654295635,0.942805887795543,0.924169570334025,0.907422053820108,0.89230992981375,0.878584718147683,0.866025560304985,0.854472072017376
1.03,0.171566536966733,0.267951813210524,0.333343156995157,0.381983001615108,0.420211204601444,0.451418816302019,0.477586030900719,0.499999950420221,0.519498645001477,0.985150310942624,0.963432475641547,0.94280553078196,0.924169352267899,0.907421238057605,0.892309897350576,0.878584995631219,0.866025438859521,0.854471345063961
1.04,0.171566614122858,0.267952659138697,0.333344179305115,0.38198343932808,0.420210484720246,0.451418187202657,0.477585646014117,0.500000274243974,0.51949997252135,0.985145569026629,0.963432268278151,0.942805165675425,0.924169170538607,0.907420918978703,0.892310150286663,0.878585203856254,0.866025250175516,0.854470537207373
1.05,0.171566744362283,0.267953569938372,0.333345232099873,0.381983779537445,0.420209661544777,0.451417553928525,0.477585404988993,0.500000719621365,0.519501404488616,0.985141959165455,0.963432032946408,0.942804793690895,0.924169028970717,0.907421003772748,0.892310597730005,0.878585332748936,0.866024990865003,0.85446965988998
1.06,0.171566932751516,0.267954548577895,0.333346310033396,0.381984014117135,0.420208738547547,0.451416929689664,0.477585326124811,0.500001292241689,0.519502924204001,0.985139367857626,0.963431770349871,0.942804416238724,0.924168931148966,0.90742141070923,0.892311164792721,0.878585372913062,0.866024658172442,0.854468725923791
1.07,0.171567184614891,0.267955597631026,0.333347407003877,0.381984135403602,0.420207722567315,0.45141632888901,0.477585426245597,0.500001996080767,0.519504511686911,0.98513768613412,0.963431481172977,0.9428040349249,0.924168880366971,0.907422068141667,0.892311790482692,0.878585315779071,0.866024250138805,0.854467749463213
1.08,0.17156750549861,0.267956719220278,0.333348516230003,0.381984136384794,0.420206623668549,0.451415766927752,0.477585720244845,0.500002833197275,0.519506143908315,0.985136809731054,0.963431166099243,0.942803651547706,0.92416887957466,0.907422913538844,0.892312425772229,0.878585153772831,0.86602376575478,0.854466745944256
1.09,0.171567901132195,0.267957914963653,0.333349630332484,0.381984010880881,0.420205454973006,0.45141525998488,0.477586220649965,0.500003803552328,0.519507795096934,0.985136639237721,0.963430825829214,0.942803268090822,0.924168931325237,0.907423892551285,0.892313031843739,0.878584880498171,0.866023205098913,0.854465731984548
1.1,0.171568377387475,0.267959185925219,0.333350741420356,0.381983753715138,0.420204232463836,0.451414824773076,0.477586937212733,0.500004904857696,0.51950943711795,0.985137080220065,0.96343046109797,0.942802886712881,0.924169037722606,0.907424958120055,0.892313578510602,0.878584490926768,0.866022569456662,0.85446472524014
1.11,0.171568940235251,0.267960532569891,0.333351841181557,0.381983360873383,0.420202974762768,0.451414478273538,0.47758787653222,0.50000613245782,0.519511039922011,0.98513804331978,0.96343007269204,0.942802509733558,0.924169200370157,0.907426069634048,0.892314042809908,0.878583981588887,0.866021861416789,0.854463744216696
1.12,0.171569595699796,0.267961954722809,0.333352920977211,0.3819828296504,0.420201702881205,0.451414237452701,0.477589041716637,0.500007479250372,0.519512572060775,0.985139444329314,0.963429661465553,0.942802139616293,0.924169420321841,0.907427192141059,0.892314407762116,0.878583350758361,0.866021084941887,0.854462808034466
1.13,0.171570349811358,0.267963451533628,0.333353971939047,0.381982158781777,0.420200439946236,0.451414118964265,0.47759043209042,0.500008935649641,0.519514001263616,0.985141204243172,0.963429228355482,0.942801778947804,0.924169698036481,0.90742829561701,0.89231466129129,0.878582598625313,0.866020245410354,0.854461936148128
1.14,0.17157120855686,0.267965021446048,0.333354985069321,0.381981348559689,0.420199210902837,0.451414138840275,0.477592042952651,0.500010489596305,0.519515295068496,0.985143249285994,0.963428774395801,0.942801430414567,0.924170033336242,0.907429354296757,0.892314795298291,0.878581727450236,0.86601934962766,0.854461148024355
1.15,0.171572177828978,0.267966662172855,0.333355951342604,0.381980400931159,0.420198042193769,0.451414312175344,0.477593865392634,0.500012126616468,0.519516421498342,0.985145510917971,0.963428300730446,0.942801096776472,0.924170425370162,0.907430346068972,0.89231480487813,0.878580741693407,0.866018405805366,0.854460462781609
1.16,0.17157326337381,0.267968370676729,0.333356861808766,0.381979319577472,0.420196961418912,0.451414652808438,0.477595886168033,0.500013829931884,0.519517349772622,0.985147925818263,0.963427808624927,0.942800780837937,0.924170872583627,0.907431251936677,0.892314687671686,0.878579648113986,0.866017423506957,0.854459898798237
1.17,0.171574470737357,0.267970143157033,0.333357707696445,0.381978109973472,0.420195996976039,0.451415173006862,0.477598087650468,0.500015580622388,0.519518051042333,0.985150435847162,0.963427299476462,0.942800485416735,0.924171372694601,0.907432055544114,0.892314443341165,0.878578455833669,0.866016413560244,0.854459473296376
1.18,0.171575805211041,0.26797197504276,0.333358480516307,0.381976779425633,0.420195177685279,0.451415883157327,0.477600447842878,0.500017357840438,0.519518499135106,0.985152987987802,0.963426774822539,0.942800213310865,0.924171922677394,0.907432742769717,0.892314073157973,0.878577176360404,0.866015387936735,0.85445920191045
1.19,0.171577271776496,0.267973860991783,0.333359172163342,0.381975337087899,0.420194532399756,0.451416791469113,0.47760294047221,0.500019139076625,0.519518671295922,0.98515553426833,0.963426236347785,0.942799967263815,0.924172518754651,0.907433301384159,0.892313579691189,0.878575823568405,0.866014359599106,0.854459098250078
1.2,0.171578875049879,0.26797579489652,0.333359775017469,0.381973793954472,0.420194089605161,0.451417903694442,0.47760553516021,0.500020900473826,0.519518548907881,0.985158031665474,0.963425685889058,0.942799749928572,0.924173156398191,0.907433720771609,0.892312966584476,0.878574413631455,0.86601334231853,0.854459173468073
1.21,0.171580619225964,0.267977769896078,0.33336028204169,0.381972162828893,0.420193877011235,0.451419222871196,0.477608197674096,0.500022617186532,0.519518118176627,0.985160441990557,0.963425125438695,0.942799563830772,0.924173830339202,0.907433991711608,0.892312238409087,0.878572964907426,0.866012350464346,0.854459435844787
1.22,0.171582508022261,0.267979778394906,0.333360686877027,0.381970458268931,0.420193921138391,0.451420749093075,0.477610890257909,0.500024263780768,0.519517370761616,0.985162731759006,0.963424557145836,0.942799411331414,0.924174534588231,0.907434106218265,0.892311400580647,0.878571497772835,0.866011398769119,0.854459890400382
1.23,0.171584544623455,0.267981812087942,0.333360983933508,0.381968696507047,0.420194246902917,0.45142247931216,0.477613572044159,0.500025814668897,0.519516304337213,0.985164872044515,0.963423983315795,0.942799294589531,0.924175262465256,0.907434057432884,0.892310459327529,0.878570034407268,0.866010502072816,0.854460538546626
1.24,0.171586731626419,0.267983861992214,0.333361168476422,0.381966895346378,0.420194877204424,0.451424407178655,0.477616199544163,0.500027244572615,0.519514923066879,0.985166838319023,0.963423406407424,0.942799215525274,0.924176006640054,0.907433839565513,0.892309421698966,0.878568598528499,0.866009675050294,0.854461377789565
1.25,0.17158907098608,0.267985918484785,0.333361236707117,0.381965074032434,0.420195832519399,0.451426522922288,0.477618727214155,0.500028529006479,0.519513237974349,0.985168610279719,0.963422829028473,0.942799175783847,0.924176759182895,0.907433447880482,0.892308295601501,0.87856721508017,0.866008931926829,0.854462401493911
1.26,0.171591563962436,0.26798797134693,0.333361185837609,0.381963253100968,0.420197130504897,0.451428813279523,0.477621108092881,0.50002964477354,0.519511267196772,0.985170171664325,0.963422253928925,0.942799176700716,0.924177511625529,0.907432878720558,0.892307089852991,0.878565909874948,0.866008286186808,0.854463598719081
1.27,0.171594211068992,0.267990009814359,0.333361014158287,0.3819614542027,0.420198785616551,0.451431261470243,0.477623294504946,0.500030570463952,0.519509036106296,0.985171510055947,0.963421683992337,0.94279921926856,0.924178255032217,0.907432129564007,0.892305814244075,0.878564709197038,0.866007750281043,0.854464954135786
1.28,0.171597012022909,0.267992022633261,0.33336072109804,0.381959699905855,0.420200808745229,0.451433847227096,0.477625238822742,0.500031286946953,0.519506577288548,0.98517261667874,0.963421122225195,0.942799304106379,0.924178980080505,0.907431199108657,0.892304479597882,0.878563639368975,0.866007335338379,0.854466448030657
1.29,0.171599965697153,0.267993998121948,0.333360307276142,0.381958013477761,0.420203206876747,0.451436546880044,0.477626894278313,0.500031777846261,0.519503930368779,0.985173486185738,0.963420571744349,0.942799431431196,0.924179677151217,0.907430087376831,0.892303097819672,0.878562726288476,0.866007050887463,0.854468056404789
1.3,0.171603070074929,0.267995924237769,0.333359774545273,0.381956418646982,0.42020598277911,0.451439333498029,0.4776282158151,0.500032029988799,0.519501141679211,0.985174116440141,0.963420035762578,0.942799601032751,0.924180336427055,0.907428795834967,0.892301681929113,0.87856199494205,0.866006904594537,0.85446975117027
1.31,0.171606322206688,0.267997788648983,0.33335912602511,0.381954939347784,0.420209134721782,0.451442177088895,0.477629160968088,0.50003203381673,0.519498263764239,0.985174508291353,0.963419517572363,0.942799812251601,0.924180947999054,0.90742732752178,0.892300246069007,0.878561468902788,0.86600690202307,0.854471500446754
1.32,0.171609718169984,0.267999578811219,0.333358366125938,0.381953599448949,0.420212656231464,0.451445044857909,0.477629690759622,0.500031783753015,0.519495354723457,0.985174665347102,0.963419020527958,0.942800063960972,0.924181501979964,0.90742568717884,0.892298805485359,0.878561169820455,0.86600704642088,0.854473268957977
1.33,0.171613253032467,0.268001282048108,0.333357500561807,0.381952422469262,0.420216535888793,0.451447901524381,0.477629770596923,0.500031278511214,0.519492477396141,0.985174593742908,0.963418548025873,0.942800354552718,0.924181988623553,0.907423881377651,0.892297376474907,0.878561116912545,0.866007338540102,0.854475018525891
1.34,0.171616920818284,0.268002885635666,0.333356536352809,0.381951431282214,0.420220757170253,0.451450709694955,0.477629371156361,0.500030521340868,0.519489698394545,0.985174301910179,0.963418103483876,0.942800681927702,0.924182398448677,0.907421918637571,0.892295976297348,0.878561326465398,0.866007776494969,0.85447670865775
1.35,0.171620714478151,0.268004376889929,0.333355481816096,0.381950647812744,0.420225298339426,0.451453430291247,0.477628469238637,0.50002952020069,0.519487086997167,0.985173800344179,0.963417690318669,0.942801043490866,0.924182722366844,0.907419809529154,0.892294623050729,0.878561811354767,0.8660083556619,0.854478297219196
1.36,0.171624625863368,0.26800574325736,0.333354346545356,0.38195009272902,0.420230132391456,0.451456023028511,0.47762704857845,0.500028287852808,0.519484713916944,0.985173101373068,0.963417311922364,0.942801436151244,0.92418295181191,0.907417566757979,0.89229333550957,0.878562580595335,0.866009068625738,0.854479741184086
1.37,0.171628645704016,0.268006972407481,0.333353141378496,0.38194978513253,0.42023522705435,0.45145844694108,0.47762510059181,0.500026841872506,0.51948264996297,0.985172218929211,0.963416971637935,0.942801856327101,0.924183078870452,0.907415205224388,0.892292132926475,0.878563638928712,0.866009905175365,0.854480997449631
1.38,0.171632763591598,0.268008052327183,0.333351878353398,0.381949742249895,0.420240544850329,0.451460660949383,0.477622625044094,0.500025204569276,0.519480964617775,0.985171168323858,0.963416672733808,0.942802299956363,0.924183096411274,0.907412742055111,0.892291034799002,0.878564986459217,0.866010852351078,0.854482023703366
1.39,0.171636967966338,0.268008971416111,0.333350570651653,0.381949979129998,0.420246043220057,0.451462624462379,0.47761963062215,0.500023402816434,0.519479724555322,0.985169966026313,0.963416418377776,0.94280276251245,0.924182998212459,0.907410196603288,0.892290060604596,0.878566618346425,0.866011894545302,0.85448277932659
1.4,0.171641246109374,0.26800971858255,0.333349232530284,0.381950508350147,0.420251674712077,0.451464298008403,0.477616135394283,0.500021467788168,0.519478992127591,0.985168629448591,0.963416211610423,0.942803239025546,0.9241827790843,0.907407590413983,0.892289229507333,0.878568524562927,0.866013013657265,0.85448322631733
1.41,0.171645584140045,0.268010283339159,0.333347879241554,0.381951339735115,0.420257387239202,0.451465643886552,0.477612167142888,0.500019434604512,0.519478823849849,0.985167176736568,0.963416055318263,0.942803724109354,0.924182434986464,0.907404947152962,0.892288560041027,0.878570689725101,0.866014189301328,0.854483330214507
1.42,0.171649967018474,0.268010655897939,0.333346526941041,0.381952480092932,0.420263124403009,0.451466626830008,0.477607763555685,0.500017341886471,0.519479268916372,0.985165626568509,0.963415952206799,0.942804211993251,0.924181963137673,0.907402292497102,0.892288069774006,0.878573093003826,0.866015399067653,0.854483061004004
1.43,0.17165437855362,0.268010827263775,0.333345192584244,0.381953932971358,0.420268825886891,0.451467214672022,0.477602972263157,0.500015231225246,0.519480367779452,0.985163997961847,0.963415904773699,0.942804696559766,0.924181362116236,0.907399653985535,0.892287774961499,0.878575708121066,0.86601661883282,0.85448239398663
1.44,0.171658801416966,0.268010789325895,0.333343893812094,0.381955698438941,0.420274427917331,0.45146737900472,0.477597850711715,0.50001314657123,0.519482150824886,0.985162310088977,0.963415915282333,0.94280517138723,0.924180631949785,0.907397060831283,0.89228769019206,0.878578503437158,0.866017823117084,0.854481310587785
1.45,0.171663217161989,0.268010534946591,0.333342648825842,0.38195777289452,0.420279863792297,0.451467095820469,0.477592465864372,0.500011133550162,0.519484637176844,0.985160582102778,0.963415985735853,0.942805629797382,0.924179774192599,0.907394543693873,0.89228782803484,0.878581442132299,0.866018985483848,0.854479799088694
1.46,0.171667606249537,0.268010058046531,0.333341476251868,0.381960148908908,0.420285064474756,0.451466346125219,0.477586893723331,0.500009238715429,0.519487833663983,0.985158832972507,0.963416117852069,0.942806064907669,0.924178791988976,0.907392134414069,0.892288198694767,0.8785844824844,0.866020078976036,0.854477855259729
1.47,0.171671948079226,0.268009353686008,0.333340394997083,0.381962815102356,0.420289959248421,0.451465116513135,0.477581218671687,0.500007508747088,0.519491733976896,0.985157081330598,0.963416313039315,0.94280646968793,0.924177690121226,0.907389865712558,0.892288809682832,0.878587578243922,0.866021076583059,0.854475482877303
1.48,0.171676221026934,0.268008418141466,0.333339424095677,0.381965756061204,0.420294476431862,0.451463399691779,0.477575532634565,0.500005989609584,0.519496318044563,0.985155345330881,0.96341657237354,0.942806837021103,0.924176475040917,0.907387770855096,0.892289665508615,0.878590679104788,0.86602195173129,0.854472694107313
1.49,0.171680402488475,0.268007248976673,0.333338582548067,0.381968952296848,0.420298544146195,0.451461194947348,0.477569934063242,0.500004725681414,0.519501551654289,0.985153642518585,0.963416896576829,0.94280715976752,0.924175154882184,0.907385883287196,0.892290767402086,0.878593731268797,0.866022678790172,0.854469509739945
1.5,0.171684468929471,0.268005845107897,0.333337889152993,0.381972380249879,0.420302091130534,0.451458508539786,0.477564526749177,0.500003758871126,0.519507386335862,0.985151989712479,0.963417285997566,0.942807430832348,0.924173739456021,0.907384236242096,0.892292113071391,0.878596678099302,0.8660232335854,0.854465959262972
1.51,0.17168839594147,0.268004206862486,0.333337362333814,0.381976012341881,0.420305047598413,0.451455354018144,0.477559418478321,0.500003127734936,0.519513759526273,0.985150402899359,0.963417740592445,0.942807643235634,0.924172240224667,0.907382862326201,0.892293696502973,0.878599460858233,0.866023593910174,0.854462080763332
1.52,0.171692158304276,0.268002336030265,0.333337019960127,0.381979817076966,0.420307346127473,0.45145175244726,0.477554719539455,0.500002866611951,0.519520595026472,0.985148897141054,0.963418259910523,0.942807790184441,0.92417067025539,0.907381793086794,0.892295507809815,0.878602019518893,0.866023740025025,0.854457920649752
1.53,0.171695730054484,0.268000235907194,0.333336879165933,0.381983759194696,0.420308922573684,0.451447732537741,0.477550541103693,0.500003004793438,0.519527803756286,0.985147486494034,0.963418843079504,0.942807865146443,0.924169044153095,0.907381058567124,0.892297533132974,0.878604293645304,0.866023655136608,0.854453533192517
1.54,0.171699084560151,0.26799791133075,0.333336956165672,0.38198779987552,0.420309717000589,0.451443330672262,0.477546993495418,0.500003565742784,0.51953528480796,0.985146183941603,0.963419488794428,0.942807861924379,0.924167377971535,0.907380686854445,0.892299754600835,0.878606223327348,0.866023325845685,0.854448979880009
1.55,0.171702194601514,0.267995368706548,0.333337266069475,0.381991896999313,0.420309674613167,0.451438590822442,0.477544184377922,0.500004566382728,0.519542926792806,0.985145001338597,0.963420195308933,0.942807774730696,0.924165689102978,0.907380703626844,0.8923021503497,0.878607750159495,0.866022742554652,0.854444328595323
1.56,0.171705032457666,0.267992616025751,0.333337822699122,0.381996005457054,0.420308746685232,0.451433564351896,0.477542216879669,0.50000601646604,0.519550609469351,0.985143949368437,0.963420960429231,0.942807598261712,0.92416399614655,0.907381131704918,0.892304694608382,0.87860881824957,0.866021899825295,0.854439652620174
